T1CFC 5281:023.796   SEGGER J-Link V6.86 Log File
T1CFC 5281:023.901   DLL Compiled: Sep 24 2020 17:31:31
T1CFC 5281:023.914   Logging started @ 2021-03-15 06:44
T1CFC 5281:023.927 - 621798.594ms
T1CFC 5281:023.941 JLINK_SetWarnOutHandler(...)
T1CFC 5281:023.952 - 0.015ms
T1CFC 5281:023.964 JLINK_OpenEx(...)
T1CFC 5281:025.754   Firmware: J-Link ARM-OB STM32 compiled Aug 22 2012 19:52:04
T1CFC 5281:028.720   Hardware: V7.00
T1CFC 5281:028.754   S/N: 20090928
T1CFC 5281:028.769   OEM: SEGGER
T1CFC 5281:028.784   Feature(s): RDI,FlashDL,FlashBP,JFlash,GDBFull
T1CFC 5281:030.393   TELNET listener socket opened on port 19021
T1CFC 5281:034.083   WEBSRV Starting webserver
T1CFC 5281:034.342   WEBSRV Webserver running on local port 19080
T1CFC 5281:034.366 - 10.409ms returns "O.K."
T1CFC 5281:034.393 JLINK_GetEmuCaps()
T1CFC 5281:034.407 - 0.019ms returns 0x88EA5833
T1CFC 5281:034.422 JLINK_TIF_GetAvailable(...)
T1CFC 5281:034.889 - 0.487ms
T1CFC 5281:034.925 JLINK_SetErrorOutHandler(...)
T1CFC 5281:034.935 - 0.015ms
T1CFC 5281:034.953 JLINK_ExecCommand("ProjectFile = "C:\Users\ares\Desktop\STM32_SmarthomeCode\USER\JLinkSettings.ini"", ...). 
T1CFC 5281:037.272 - 2.337ms returns 0x00
T1CFC 5281:040.735 JLINK_ExecCommand("Device = STM32F407ZG", ...). 
T1CFC 5281:044.769   Device "STM32F407ZG" selected.
T1CFC 5281:046.096 - 5.344ms returns 0x00
T1CFC 5281:046.131 JLINK_GetHardwareVersion()
T1CFC 5281:046.141 - 0.013ms returns 70000
T1CFC 5281:046.151 JLINK_GetDLLVersion()
T1CFC 5281:046.160 - 0.012ms returns 68600
T1CFC 5281:046.170 JLINK_GetOEMString(...)
T1CFC 5281:046.180 JLINK_GetFirmwareString(...)
T1CFC 5281:046.189 - 0.013ms
T1CFC 5281:054.862 JLINK_GetDLLVersion()
T1CFC 5281:054.896 - 0.038ms returns 68600
T1CFC 5281:054.907 JLINK_GetCompileDateTime()
T1CFC 5281:054.916 - 0.013ms
T1CFC 5281:057.841 JLINK_GetFirmwareString(...)
T1CFC 5281:057.867 - 0.029ms
T1CFC 5281:061.979 JLINK_GetHardwareVersion()
T1CFC 5281:062.016 - 0.042ms returns 70000
T1CFC 5281:064.982 JLINK_GetSN()
T1CFC 5281:065.012 - 0.035ms returns 20090928
T1CFC 5281:067.906 JLINK_GetOEMString(...)
T1CFC 5281:073.422 JLINK_TIF_Select(JLINKARM_TIF_SWD)
T1CFC 5281:074.556 - 1.149ms returns 0x00
T1CFC 5281:074.583 JLINK_HasError()
T1CFC 5281:074.599 JLINK_SetSpeed(5000)
T1CFC 5281:074.938 - 0.352ms
T1CFC 5281:074.962 JLINK_GetId()
T1CFC 5281:081.119   Found SW-DP with ID 0x2BA01477
T1CFC 5281:110.539   Found SW-DP with ID 0x2BA01477
T1CFC 5281:115.922   Old FW that does not support reading DPIDR via DAP jobs
T1CFC 5281:127.311   Unknown DP version. Assuming DPv0
T1CFC 5281:131.146   Scanning AP map to find all available APs
T1CFC 5281:141.185   AP[1]: Stopped AP scan as end of AP map has been reached
T1CFC 5281:145.441   AP[0]: AHB-AP (IDR: 0x24770011)
T1CFC 5281:148.903   Iterating through AP map to find AHB-AP to use
T1CFC 5281:160.483   AP[0]: Core found
T1CFC 5281:163.777   AP[0]: AHB-AP ROM base: 0xE00FF000
T1CFC 5281:171.213   CPUID register: 0x410FC241. Implementer code: 0x41 (ARM)
T1CFC 5281:174.513   Found Cortex-M4 r0p1, Little endian.
T1CFC 5281:275.749   -- Max. mem block: 0x00002C18
T1CFC 5281:275.795   CPU_ReadMem(4 bytes @ 0xE000EDF0)
T1CFC 5281:276.759   CPU_ReadMem(4 bytes @ 0xE0002000)
T1CFC 5281:281.817   FPUnit: 6 code (BP) slots and 2 literal slots
T1CFC 5281:281.866   CPU_ReadMem(4 bytes @ 0xE000EDFC)
T1CFC 5281:282.523   CPU_WriteMem(4 bytes @ 0xE000EDFC)
T1CFC 5281:283.175   CPU_ReadMem(4 bytes @ 0xE0001000)
T1CFC 5281:283.754   CPU_WriteMem(4 bytes @ 0xE0001000)
T1CFC 5281:284.430   CPU_ReadMem(4 bytes @ 0xE000ED88)
T1CFC 5281:285.131   CPU_WriteMem(4 bytes @ 0xE000ED88)
T1CFC 5281:285.768   CPU_ReadMem(4 bytes @ 0xE000ED88)
T1CFC 5281:286.378   CPU_WriteMem(4 bytes @ 0xE000ED88)
T1CFC 5281:292.386   CoreSight components:
T1CFC 5281:296.832   ROMTbl[0] @ E00FF000
T1CFC 5281:296.877   CPU_ReadMem(64 bytes @ 0xE00FF000)
T1CFC 5281:298.096   CPU_ReadMem(32 bytes @ 0xE000EFE0)
T1CFC 5281:302.371   ROMTbl[0][0]: E000E000, CID: B105E00D, PID: 000BB00C SCS-M7
T1CFC 5281:302.413   CPU_ReadMem(32 bytes @ 0xE0001FE0)
T1CFC 5281:309.105   ROMTbl[0][1]: E0001000, CID: B105E00D, PID: 003BB002 DWT
T1CFC 5281:309.155   CPU_ReadMem(32 bytes @ 0xE0002FE0)
T1CFC 5281:314.702   ROMTbl[0][2]: E0002000, CID: B105E00D, PID: 002BB003 FPB
T1CFC 5281:314.748   CPU_ReadMem(32 bytes @ 0xE0000FE0)
T1CFC 5281:319.097   ROMTbl[0][3]: E0000000, CID: B105E00D, PID: 003BB001 ITM
T1CFC 5281:319.141   CPU_ReadMem(32 bytes @ 0xE0040FE0)
T1CFC 5281:323.248   ROMTbl[0][4]: E0040000, CID: B105900D, PID: 000BB9A1 TPIU
T1CFC 5281:323.289   CPU_ReadMem(32 bytes @ 0xE0041FE0)
T1CFC 5281:327.957   ROMTbl[0][5]: E0041000, CID: B105900D, PID: 000BB925 ETM
T1CFC 5281:328.778 - 253.830ms returns 0x2BA01477
T1CFC 5281:328.807 JLINK_GetDLLVersion()
T1CFC 5281:328.816 - 0.013ms returns 68600
T1CFC 5281:328.828 JLINK_CORE_GetFound()
T1CFC 5281:328.836 - 0.012ms returns 0xE0000FF
T1CFC 5281:328.848 JLINK_GetDebugInfo(0x100 = JLINKARM_ROM_TABLE_ADDR_INDEX)
T1CFC 5281:328.857   Value=0xE00FF000
T1CFC 5281:328.869 - 0.025ms returns 0
T1CFC 5281:332.349 JLINK_GetDebugInfo(0x100 = JLINKARM_ROM_TABLE_ADDR_INDEX)
T1CFC 5281:332.384   Value=0xE00FF000
T1CFC 5281:332.397 - 0.052ms returns 0
T1CFC 5281:332.407 JLINK_GetDebugInfo(0x101 = JLINKARM_DEBUG_INFO_ETM_ADDR_INDEX)
T1CFC 5281:332.417   Value=0xE0041000
T1CFC 5281:332.428 - 0.025ms returns 0
T1CFC 5281:332.439 JLINK_ReadMemEx(0xE0041FD0, 0x20 Bytes, Flags = 0x02000004)
T1CFC 5281:332.461   CPU_ReadMem(32 bytes @ 0xE0041FD0)
T1CFC 5281:333.526   Data:  04 00 00 00 00 00 00 00 00 00 00 00 00 00 00 00 ...
T1CFC 5281:333.542 - 1.107ms returns 32 (0x20)
T1CFC 5281:333.553 JLINK_GetDebugInfo(0x102 = JLINKARM_DEBUG_INFO_MTB_ADDR_INDEX)
T1CFC 5281:333.562   Value=0x00000000
T1CFC 5281:333.574 - 0.025ms returns 0
T1CFC 5281:333.583 JLINK_GetDebugInfo(0x103 = JLINKARM_DEBUG_INFO_TPIU_ADDR_INDEX)
T1CFC 5281:333.592   Value=0xE0040000
T1CFC 5281:333.604 - 0.024ms returns 0
T1CFC 5281:333.613 JLINK_GetDebugInfo(0x104 = JLINKARM_DEBUG_INFO_ITM_ADDR_INDEX)
T1CFC 5281:333.622   Value=0xE0000000
T1CFC 5281:333.634 - 0.024ms returns 0
T1CFC 5281:333.643 JLINK_GetDebugInfo(0x105 = JLINKARM_DEBUG_INFO_DWT_ADDR_INDEX)
T1CFC 5281:333.652   Value=0xE0001000
T1CFC 5281:333.663 - 0.024ms returns 0
T1CFC 5281:333.673 JLINK_GetDebugInfo(0x106 = JLINKARM_DEBUG_INFO_FPB_ADDR_INDEX)
T1CFC 5281:333.682   Value=0xE0002000
T1CFC 5281:333.694 - 0.024ms returns 0
T1CFC 5281:333.703 JLINK_GetDebugInfo(0x107 = JLINKARM_DEBUG_INFO_NVIC_ADDR_INDEX)
T1CFC 5281:333.711   Value=0xE000E000
T1CFC 5281:333.723 - 0.024ms returns 0
T1CFC 5281:333.732 JLINK_GetDebugInfo(0x10C = JLINKARM_DEBUG_INFO_DBG_ADDR_INDEX)
T1CFC 5281:333.741   Value=0xE000EDF0
T1CFC 5281:333.753 - 0.024ms returns 0
T1CFC 5281:333.762 JLINK_GetDebugInfo(0x01 = Unknown)
T1CFC 5281:333.771   Value=0x00000001
T1CFC 5281:333.783 - 0.024ms returns 0
T1CFC 5281:333.792 JLINK_ReadMemU32(0xE000ED00, 0x1 Items)
T1CFC 5281:333.804   CPU_ReadMem(4 bytes @ 0xE000ED00)
T1CFC 5281:334.511   Data:  41 C2 0F 41
T1CFC 5281:334.532   Debug reg: CPUID
T1CFC 5281:334.545 - 0.756ms returns 1 (0x1)
T1CFC 5281:334.557 JLINK_GetDebugInfo(0x10F = JLINKARM_DEBUG_INFO_HAS_CORTEX_M_SECURITY_EXT_INDEX)
T1CFC 5281:334.566   Value=0x00000000
T1CFC 5281:334.578 - 0.025ms returns 0
T1CFC 5281:334.589 JLINK_HasError()
T1CFC 5281:334.599 JLINK_SetResetType(JLINKARM_CM3_RESET_TYPE_NORMAL)
T1CFC 5281:334.608 - 0.012ms returns JLINKARM_CM3_RESET_TYPE_NORMAL
T1CFC 5281:334.618 JLINK_Reset()
T1CFC 5281:334.632   CPU is running
T1CFC 5281:334.646   CPU_WriteMem(4 bytes @ 0xE000EDF0)
T1CFC 5281:335.412   CPU is running
T1CFC 5281:335.431   CPU_WriteMem(4 bytes @ 0xE000EDFC)
T1CFC 5281:339.608   Reset: Halt core after reset via DEMCR.VC_CORERESET.
T1CFC 5281:344.320   Reset: Reset device via AIRCR.SYSRESETREQ.
T1CFC 5281:344.364   CPU is running
T1CFC 5281:344.382   CPU_WriteMem(4 bytes @ 0xE000ED0C)
T1CFC 5281:397.798   CPU_ReadMem(4 bytes @ 0xE000EDF0)
T1CFC 5281:398.513   CPU_ReadMem(4 bytes @ 0xE000EDF0)
T1CFC 5281:399.133   CPU is running
T1CFC 5281:399.161   CPU_WriteMem(4 bytes @ 0xE000EDF0)
T1CFC 5281:399.780   CPU is running
T1CFC 5281:399.799   CPU_WriteMem(4 bytes @ 0xE000EDFC)
T1CFC 5281:405.990   CPU_ReadMem(4 bytes @ 0xE000EDF0)
T1CFC 5281:410.133   CPU_WriteMem(4 bytes @ 0xE0002000)
T1CFC 5281:410.771   CPU_ReadMem(4 bytes @ 0xE000EDFC)
T1CFC 5281:411.396   CPU_ReadMem(4 bytes @ 0xE0001000)
T1CFC 5281:412.020 - 77.410ms
T1CFC 5281:412.045 JLINK_Halt()
T1CFC 5281:412.056 - 0.017ms returns 0x00
T1CFC 5281:412.071 JLINK_ReadMemU32(0xE000EDF0, 0x1 Items)
T1CFC 5281:412.091   CPU_ReadMem(4 bytes @ 0xE000EDF0)
T1CFC 5281:412.742   Data:  03 00 03 00
T1CFC 5281:412.762   Debug reg: DHCSR
T1CFC 5281:412.776 - 0.710ms returns 1 (0x1)
T1CFC 5281:412.792 JLINK_WriteU32_64(0xE000EDF0, 0xA05F0003)
T1CFC 5281:412.803   Debug reg: DHCSR
T1CFC 5281:412.829   CPU_WriteMem(4 bytes @ 0xE000EDF0)
T1CFC 5281:413.524 - 0.740ms returns 0 (0x00000000)
T1CFC 5281:413.543 JLINK_WriteU32_64(0xE000EDFC, 0x01000000)
T1CFC 5281:413.554   Debug reg: DEMCR
T1CFC 5281:413.574   CPU_WriteMem(4 bytes @ 0xE000EDFC)
T1CFC 5281:414.276 - 0.748ms returns 0 (0x00000000)
T1CFC 5281:429.665 JLINK_GetHWStatus(...)
T1CFC 5281:430.171 - 0.514ms returns 0
T1CFC 5281:441.010 JLINK_GetNumBPUnits(Type = 0xFFFFFF00)
T1CFC 5281:441.044 - 0.039ms returns 0x06
T1CFC 5281:441.056 JLINK_GetNumBPUnits(Type = 0xF0)
T1CFC 5281:441.065 - 0.013ms returns 0x2000
T1CFC 5281:441.074 JLINK_GetNumWPUnits()
T1CFC 5281:441.082 - 0.012ms returns 4
T1CFC 5281:450.740 JLINK_GetSpeed()
T1CFC 5281:450.773 - 0.037ms returns 4000
T1CFC 5281:457.041 JLINK_ReadMemU32(0xE000E004, 0x1 Items)
T1CFC 5281:457.091   CPU_ReadMem(4 bytes @ 0xE000E004)
T1CFC 5281:457.762   Data:  02 00 00 00
T1CFC 5281:457.782 - 0.745ms returns 1 (0x1)
T1CFC 5281:457.795 JLINK_ReadMemU32(0xE000E004, 0x1 Items)
T1CFC 5281:457.809   CPU_ReadMem(4 bytes @ 0xE000E004)
T1CFC 5281:458.503   Data:  02 00 00 00
T1CFC 5281:458.517 - 0.726ms returns 1 (0x1)
T1CFC 5281:458.529 JLINK_WriteMemEx(0xE0001000, 0x0000001C Bytes, Flags = 0x02000004)
T1CFC 5281:458.538   Data:  01 00 00 00 00 00 00 00 00 00 00 00 00 00 00 00 ...
T1CFC 5281:458.969   CPU_WriteMem(28 bytes @ 0xE0001000)
T1CFC 5281:460.026 - 1.515ms returns 0x1C
T1CFC 5281:460.060 JLINK_Halt()
T1CFC 5281:460.069 - 0.013ms returns 0x00
T1CFC 5281:460.079 JLINK_IsHalted()
T1CFC 5281:460.089 - 0.014ms returns TRUE
T1CFC 5281:463.195 JLINK_WriteMem(0x20000000, 0x180 Bytes, ...)
T1CFC 5281:463.219   Data:  00 BE 0A E0 0D 78 2D 06 68 40 08 24 40 00 00 D3 ...
T1CFC 5281:463.640   CPU_WriteMem(384 bytes @ 0x20000000)
T1CFC 5281:468.745 - 5.570ms returns 0x180
T1CFC 5281:468.821 JLINK_HasError()
T1CFC 5281:468.834 JLINK_WriteReg(R0, 0x08000000)
T1CFC 5281:468.848 - 0.017ms returns 0
T1CFC 5281:468.858 JLINK_WriteReg(R1, 0x0A037A00)
T1CFC 5281:468.867 - 0.013ms returns 0
T1CFC 5281:468.876 JLINK_WriteReg(R2, 0x00000001)
T1CFC 5281:468.885 - 0.013ms returns 0
T1CFC 5281:468.895 JLINK_WriteReg(R3, 0x00000000)
T1CFC 5281:468.904 - 0.013ms returns 0
T1CFC 5281:468.913 JLINK_WriteReg(R4, 0x00000000)
T1CFC 5281:468.922 - 0.012ms returns 0
T1CFC 5281:468.931 JLINK_WriteReg(R5, 0x00000000)
T1CFC 5281:468.940 - 0.012ms returns 0
T1CFC 5281:468.949 JLINK_WriteReg(R6, 0x00000000)
T1CFC 5281:468.958 - 0.013ms returns 0
T1CFC 5281:468.968 JLINK_WriteReg(R7, 0x00000000)
T1CFC 5281:468.977 - 0.014ms returns 0
T1CFC 5281:468.988 JLINK_WriteReg(R8, 0x00000000)
T1CFC 5281:468.997 - 0.013ms returns 0
T1CFC 5281:469.007 JLINK_WriteReg(R9, 0x2000017C)
T1CFC 5281:469.015 - 0.012ms returns 0
T1CFC 5281:469.025 JLINK_WriteReg(R10, 0x00000000)
T1CFC 5281:469.033 - 0.012ms returns 0
T1CFC 5281:469.043 JLINK_WriteReg(R11, 0x00000000)
T1CFC 5281:469.051 - 0.012ms returns 0
T1CFC 5281:469.061 JLINK_WriteReg(R12, 0x00000000)
T1CFC 5281:469.069 - 0.012ms returns 0
T1CFC 5281:469.079 JLINK_WriteReg(R13 (SP), 0x20001000)
T1CFC 5281:469.088 - 0.013ms returns 0
T1CFC 5281:469.098 JLINK_WriteReg(R14, 0x20000001)
T1CFC 5281:469.107 - 0.013ms returns 0
T1CFC 5281:469.122 JLINK_WriteReg(R15 (PC), 0x20000054)
T1CFC 5281:469.134 - 0.017ms returns 0
T1CFC 5281:469.144 JLINK_WriteReg(XPSR, 0x01000000)
T1CFC 5281:469.153 - 0.013ms returns 0
T1CFC 5281:469.162 JLINK_WriteReg(MSP, 0x20001000)
T1CFC 5281:469.171 - 0.012ms returns 0
T1CFC 5281:469.180 JLINK_WriteReg(PSP, 0x20001000)
T1CFC 5281:469.189 - 0.012ms returns 0
T1CFC 5281:469.199 JLINK_WriteReg(CFBP, 0x00000000)
T1CFC 5281:469.207 - 0.012ms returns 0
T1CFC 5281:469.217 JLINK_SetBPEx(Addr = 0x20000000, Type = 0xFFFFFFF2)
T1CFC 5281:469.232   CPU_ReadMem(2 bytes @ 0x20000000)
T1CFC 5281:469.872 - 0.661ms returns 0x00000001
T1CFC 5281:469.886 JLINK_Go()
T1CFC 5281:469.897   CPU_WriteMem(2 bytes @ 0x20000000)
T1CFC 5281:470.535   CPU_ReadMem(4 bytes @ 0xE0001000)
T1CFC 5281:471.125   CPU_WriteMem(4 bytes @ 0xE0002008)
T1CFC 5281:471.140   CPU_WriteMem(4 bytes @ 0xE000200C)
T1CFC 5281:471.152   CPU_WriteMem(4 bytes @ 0xE0002010)
T1CFC 5281:471.165   CPU_WriteMem(4 bytes @ 0xE0002014)
T1CFC 5281:471.177   CPU_WriteMem(4 bytes @ 0xE0002018)
T1CFC 5281:471.190   CPU_WriteMem(4 bytes @ 0xE000201C)
T1CFC 5281:473.785   CPU_WriteMem(4 bytes @ 0xE0001004)
T1CFC 5281:477.770 - 7.910ms
T1CFC 5281:477.806 JLINK_IsHalted()
T1CFC 5281:481.255   CPU_ReadMem(2 bytes @ 0x20000000)
T1CFC 5281:481.889 - 4.090ms returns TRUE
T1CFC 5281:481.906 JLINK_ReadReg(R15 (PC))
T1CFC 5281:481.919 - 0.018ms returns 0x20000000
T1CFC 5281:481.930 JLINK_ClrBPEx(BPHandle = 0x00000001)
T1CFC 5281:481.940 - 0.014ms returns 0x00
T1CFC 5281:481.951 JLINK_ReadReg(R0)
T1CFC 5281:481.961 - 0.014ms returns 0x00000000
T1CFC 5281:482.492 JLINK_HasError()
T1CFC 5281:482.511 JLINK_WriteReg(R0, 0x08000000)
T1CFC 5281:482.523 - 0.016ms returns 0
T1CFC 5281:482.534 JLINK_WriteReg(R1, 0x00004000)
T1CFC 5281:482.544 - 0.014ms returns 0
T1CFC 5281:482.554 JLINK_WriteReg(R2, 0x000000FF)
T1CFC 5281:482.564 - 0.014ms returns 0
T1CFC 5281:482.574 JLINK_WriteReg(R3, 0x00000000)
T1CFC 5281:482.583 - 0.013ms returns 0
T1CFC 5281:482.594 JLINK_WriteReg(R4, 0x00000000)
T1CFC 5281:482.603 - 0.014ms returns 0
T1CFC 5281:482.613 JLINK_WriteReg(R5, 0x00000000)
T1CFC 5281:482.623 - 0.013ms returns 0
T1CFC 5281:482.633 JLINK_WriteReg(R6, 0x00000000)
T1CFC 5281:482.642 - 0.013ms returns 0
T1CFC 5281:482.652 JLINK_WriteReg(R7, 0x00000000)
T1CFC 5281:482.662 - 0.013ms returns 0
T1CFC 5281:482.672 JLINK_WriteReg(R8, 0x00000000)
T1CFC 5281:482.682 - 0.014ms returns 0
T1CFC 5281:482.692 JLINK_WriteReg(R9, 0x2000017C)
T1CFC 5281:482.701 - 0.013ms returns 0
T1CFC 5281:482.711 JLINK_WriteReg(R10, 0x00000000)
T1CFC 5281:482.721 - 0.013ms returns 0
T1CFC 5281:482.731 JLINK_WriteReg(R11, 0x00000000)
T1CFC 5281:482.740 - 0.013ms returns 0
T1CFC 5281:482.750 JLINK_WriteReg(R12, 0x00000000)
T1CFC 5281:482.760 - 0.013ms returns 0
T1CFC 5281:482.770 JLINK_WriteReg(R13 (SP), 0x20001000)
T1CFC 5281:482.780 - 0.014ms returns 0
T1CFC 5281:482.790 JLINK_WriteReg(R14, 0x20000001)
T1CFC 5281:482.799 - 0.013ms returns 0
T1CFC 5281:482.809 JLINK_WriteReg(R15 (PC), 0x20000020)
T1CFC 5281:482.819 - 0.013ms returns 0
T1CFC 5281:482.829 JLINK_WriteReg(XPSR, 0x01000000)
T1CFC 5281:482.839 - 0.014ms returns 0
T1CFC 5281:482.849 JLINK_WriteReg(MSP, 0x20001000)
T1CFC 5281:482.858 - 0.013ms returns 0
T1CFC 5281:482.868 JLINK_WriteReg(PSP, 0x20001000)
T1CFC 5281:482.878 - 0.013ms returns 0
T1CFC 5281:482.888 JLINK_WriteReg(CFBP, 0x00000000)
T1CFC 5281:482.897 - 0.013ms returns 0
T1CFC 5281:482.908 JLINK_SetBPEx(Addr = 0x20000000, Type = 0xFFFFFFF2)
T1CFC 5281:482.919 - 0.015ms returns 0x00000002
T1CFC 5281:482.929 JLINK_Go()
T1CFC 5281:482.947   CPU_ReadMem(4 bytes @ 0xE0001000)
T1CFC 5281:487.023 - 4.113ms
T1CFC 5281:487.053 JLINK_IsHalted()
T1CFC 5281:490.497   CPU_ReadMem(2 bytes @ 0x20000000)
T1CFC 5281:491.118 - 4.073ms returns TRUE
T1CFC 5281:491.134 JLINK_ReadReg(R15 (PC))
T1CFC 5281:491.146 - 0.017ms returns 0x20000000
T1CFC 5281:491.157 JLINK_ClrBPEx(BPHandle = 0x00000002)
T1CFC 5281:491.167 - 0.014ms returns 0x00
T1CFC 5281:491.177 JLINK_ReadReg(R0)
T1CFC 5281:491.262 - 0.089ms returns 0x00000001
T1CFC 5281:491.273 JLINK_HasError()
T1CFC 5281:491.284 JLINK_WriteReg(R0, 0x08000000)
T1CFC 5281:491.294 - 0.014ms returns 0
T1CFC 5281:491.305 JLINK_WriteReg(R1, 0x00004000)
T1CFC 5281:491.314 - 0.013ms returns 0
T1CFC 5281:491.324 JLINK_WriteReg(R2, 0x000000FF)
T1CFC 5281:491.333 - 0.013ms returns 0
T1CFC 5281:491.343 JLINK_WriteReg(R3, 0x00000000)
T1CFC 5281:491.352 - 0.013ms returns 0
T1CFC 5281:491.362 JLINK_WriteReg(R4, 0x00000000)
T1CFC 5281:491.372 - 0.013ms returns 0
T1CFC 5281:491.381 JLINK_WriteReg(R5, 0x00000000)
T1CFC 5281:491.391 - 0.013ms returns 0
T1CFC 5281:491.401 JLINK_WriteReg(R6, 0x00000000)
T1CFC 5281:491.410 - 0.013ms returns 0
T1CFC 5281:491.420 JLINK_WriteReg(R7, 0x00000000)
T1CFC 5281:491.429 - 0.013ms returns 0
T1CFC 5281:491.439 JLINK_WriteReg(R8, 0x00000000)
T1CFC 5281:491.448 - 0.013ms returns 0
T1CFC 5281:491.458 JLINK_WriteReg(R9, 0x2000017C)
T1CFC 5281:491.467 - 0.013ms returns 0
T1CFC 5281:491.477 JLINK_WriteReg(R10, 0x00000000)
T1CFC 5281:491.486 - 0.013ms returns 0
T1CFC 5281:491.496 JLINK_WriteReg(R11, 0x00000000)
T1CFC 5281:491.505 - 0.013ms returns 0
T1CFC 5281:491.515 JLINK_WriteReg(R12, 0x00000000)
T1CFC 5281:491.524 - 0.013ms returns 0
T1CFC 5281:491.534 JLINK_WriteReg(R13 (SP), 0x20001000)
T1CFC 5281:491.543 - 0.013ms returns 0
T1CFC 5281:491.553 JLINK_WriteReg(R14, 0x20000001)
T1CFC 5281:491.562 - 0.013ms returns 0
T1CFC 5281:491.572 JLINK_WriteReg(R15 (PC), 0x200000BC)
T1CFC 5281:491.581 - 0.013ms returns 0
T1CFC 5281:491.591 JLINK_WriteReg(XPSR, 0x01000000)
T1CFC 5281:491.601 - 0.014ms returns 0
T1CFC 5281:491.611 JLINK_WriteReg(MSP, 0x20001000)
T1CFC 5281:491.620 - 0.013ms returns 0
T1CFC 5281:491.630 JLINK_WriteReg(PSP, 0x20001000)
T1CFC 5281:491.639 - 0.013ms returns 0
T1CFC 5281:491.649 JLINK_WriteReg(CFBP, 0x00000000)
T1CFC 5281:491.658 - 0.013ms returns 0
T1CFC 5281:491.668 JLINK_SetBPEx(Addr = 0x20000000, Type = 0xFFFFFFF2)
T1CFC 5281:491.678 - 0.014ms returns 0x00000003
T1CFC 5281:491.688 JLINK_Go()
T1CFC 5281:491.704   CPU_ReadMem(4 bytes @ 0xE0001000)
T1CFC 5281:495.908 - 4.247ms
T1CFC 5281:495.948 JLINK_IsHalted()
T1CFC 5281:496.607 - 0.666ms returns FALSE
T1CFC 5281:496.624 JLINK_HasError()
T1CFC 5281:530.995 JLINK_IsHalted()
T1CFC 5281:531.717 - 0.728ms returns FALSE
T1CFC 5281:531.732 JLINK_HasError()
T1CFC 5281:537.002 JLINK_IsHalted()
T1CFC 5281:537.730 - 0.739ms returns FALSE
T1CFC 5281:537.749 JLINK_HasError()
T1CFC 5281:549.996 JLINK_IsHalted()
T1CFC 5281:550.641 - 0.652ms returns FALSE
T1CFC 5281:550.657 JLINK_HasError()
T1CFC 5281:555.999 JLINK_IsHalted()
T1CFC 5281:556.628 - 0.637ms returns FALSE
T1CFC 5281:556.644 JLINK_HasError()
T1CFC 5281:566.001 JLINK_IsHalted()
T1CFC 5281:566.627 - 0.634ms returns FALSE
T1CFC 5281:566.644 JLINK_HasError()
T1CFC 5281:572.998 JLINK_IsHalted()
T1CFC 5281:573.628 - 0.639ms returns FALSE
T1CFC 5281:573.645 JLINK_HasError()
T1CFC 5281:586.005 JLINK_IsHalted()
T1CFC 5281:586.620 - 0.626ms returns FALSE
T1CFC 5281:586.639 JLINK_HasError()
T1CFC 5281:612.001 JLINK_IsHalted()
T1CFC 5281:612.640 - 0.647ms returns FALSE
T1CFC 5281:612.657 JLINK_HasError()
T1CFC 5281:653.005 JLINK_IsHalted()
T1CFC 5281:653.625 - 0.629ms returns FALSE
T1CFC 5281:653.643 JLINK_HasError()
T1CFC 5281:679.014 JLINK_IsHalted()
T1CFC 5281:679.616 - 0.613ms returns FALSE
T1CFC 5281:679.636 JLINK_HasError()
T1CFC 5281:683.004 JLINK_IsHalted()
T1CFC 5281:683.630 - 0.633ms returns FALSE
T1CFC 5281:683.647 JLINK_HasError()
T1CFC 5281:704.014 JLINK_IsHalted()
T1CFC 5281:704.733 - 0.734ms returns FALSE
T1CFC 5281:704.759 JLINK_HasError()
T1CFC 5281:761.012 JLINK_IsHalted()
T1CFC 5281:761.726 - 0.723ms returns FALSE
T1CFC 5281:761.745 JLINK_HasError()
T1CFC 5281:789.013 JLINK_IsHalted()
T1CFC 5281:789.616 - 0.611ms returns FALSE
T1CFC 5281:789.633 JLINK_HasError()
T1CFC 5281:805.019 JLINK_IsHalted()
T1CFC 5281:805.728 - 0.718ms returns FALSE
T1CFC 5281:805.747 JLINK_HasError()
T1CFC 5281:829.017 JLINK_IsHalted()
T1CFC 5281:829.740 - 0.731ms returns FALSE
T1CFC 5281:829.757 JLINK_HasError()
T1CFC 5281:837.019 JLINK_IsHalted()
T1CFC 5281:837.732 - 0.720ms returns FALSE
T1CFC 5281:837.747 JLINK_HasError()
T1CFC 5281:858.038 JLINK_IsHalted()
T1CFC 5281:858.758 - 0.742ms returns FALSE
T1CFC 5281:858.795 JLINK_HasError()
T1CFC 5281:864.031 JLINK_IsHalted()
T1CFC 5281:867.684   CPU_ReadMem(2 bytes @ 0x20000000)
T1CFC 5281:868.416 - 4.410ms returns TRUE
T1CFC 5281:868.455 JLINK_ReadReg(R15 (PC))
T1CFC 5281:868.474 - 0.025ms returns 0x20000000
T1CFC 5281:868.490 JLINK_ClrBPEx(BPHandle = 0x00000003)
T1CFC 5281:868.505 - 0.020ms returns 0x00
T1CFC 5281:868.518 JLINK_ReadReg(R0)
T1CFC 5281:868.530 - 0.017ms returns 0x00000000
T1CFC 5281:869.434 JLINK_HasError()
T1CFC 5281:869.464 JLINK_WriteReg(R0, 0x08004000)
T1CFC 5281:869.477 - 0.017ms returns 0
T1CFC 5281:869.488 JLINK_WriteReg(R1, 0x00004000)
T1CFC 5281:869.497 - 0.013ms returns 0
T1CFC 5281:869.506 JLINK_WriteReg(R2, 0x000000FF)
T1CFC 5281:869.515 - 0.013ms returns 0
T1CFC 5281:869.525 JLINK_WriteReg(R3, 0x00000000)
T1CFC 5281:869.534 - 0.013ms returns 0
T1CFC 5281:869.543 JLINK_WriteReg(R4, 0x00000000)
T1CFC 5281:869.552 - 0.013ms returns 0
T1CFC 5281:869.562 JLINK_WriteReg(R5, 0x00000000)
T1CFC 5281:869.570 - 0.013ms returns 0
T1CFC 5281:869.580 JLINK_WriteReg(R6, 0x00000000)
T1CFC 5281:869.589 - 0.012ms returns 0
T1CFC 5281:869.598 JLINK_WriteReg(R7, 0x00000000)
T1CFC 5281:869.607 - 0.013ms returns 0
T1CFC 5281:869.617 JLINK_WriteReg(R8, 0x00000000)
T1CFC 5281:869.626 - 0.013ms returns 0
T1CFC 5281:869.635 JLINK_WriteReg(R9, 0x2000017C)
T1CFC 5281:869.644 - 0.013ms returns 0
T1CFC 5281:869.654 JLINK_WriteReg(R10, 0x00000000)
T1CFC 5281:869.662 - 0.013ms returns 0
T1CFC 5281:869.672 JLINK_WriteReg(R11, 0x00000000)
T1CFC 5281:869.681 - 0.013ms returns 0
T1CFC 5281:869.690 JLINK_WriteReg(R12, 0x00000000)
T1CFC 5281:869.699 - 0.013ms returns 0
T1CFC 5281:869.709 JLINK_WriteReg(R13 (SP), 0x20001000)
T1CFC 5281:869.718 - 0.013ms returns 0
T1CFC 5281:869.728 JLINK_WriteReg(R14, 0x20000001)
T1CFC 5281:869.737 - 0.012ms returns 0
T1CFC 5281:869.746 JLINK_WriteReg(R15 (PC), 0x20000020)
T1CFC 5281:869.755 - 0.013ms returns 0
T1CFC 5281:869.765 JLINK_WriteReg(XPSR, 0x01000000)
T1CFC 5281:869.774 - 0.013ms returns 0
T1CFC 5281:869.783 JLINK_WriteReg(MSP, 0x20001000)
T1CFC 5281:869.792 - 0.013ms returns 0
T1CFC 5281:869.801 JLINK_WriteReg(PSP, 0x20001000)
T1CFC 5281:869.810 - 0.013ms returns 0
T1CFC 5281:869.820 JLINK_WriteReg(CFBP, 0x00000000)
T1CFC 5281:869.828 - 0.012ms returns 0
T1CFC 5281:869.838 JLINK_SetBPEx(Addr = 0x20000000, Type = 0xFFFFFFF2)
T1CFC 5281:869.849 - 0.014ms returns 0x00000004
T1CFC 5281:869.858 JLINK_Go()
T1CFC 5281:869.879   CPU_ReadMem(4 bytes @ 0xE0001000)
T1CFC 5281:873.889 - 4.050ms
T1CFC 5281:873.923 JLINK_IsHalted()
T1CFC 5281:877.395   CPU_ReadMem(2 bytes @ 0x20000000)
T1CFC 5281:878.036 - 4.129ms returns TRUE
T1CFC 5281:878.069 JLINK_ReadReg(R15 (PC))
T1CFC 5281:878.088 - 0.024ms returns 0x20000000
T1CFC 5281:878.103 JLINK_ClrBPEx(BPHandle = 0x00000004)
T1CFC 5281:878.116 - 0.019ms returns 0x00
T1CFC 5281:878.130 JLINK_ReadReg(R0)
T1CFC 5281:878.143 - 0.017ms returns 0x00000001
T1CFC 5281:878.163 JLINK_HasError()
T1CFC 5281:878.183 JLINK_WriteReg(R0, 0x08004000)
T1CFC 5281:878.196 - 0.018ms returns 0
T1CFC 5281:878.209 JLINK_WriteReg(R1, 0x00004000)
T1CFC 5281:878.220 - 0.016ms returns 0
T1CFC 5281:878.233 JLINK_WriteReg(R2, 0x000000FF)
T1CFC 5281:878.244 - 0.016ms returns 0
T1CFC 5281:878.257 JLINK_WriteReg(R3, 0x00000000)
T1CFC 5281:878.268 - 0.015ms returns 0
T1CFC 5281:878.280 JLINK_WriteReg(R4, 0x00000000)
T1CFC 5281:878.291 - 0.015ms returns 0
T1CFC 5281:878.304 JLINK_WriteReg(R5, 0x00000000)
T1CFC 5281:878.314 - 0.016ms returns 0
T1CFC 5281:878.328 JLINK_WriteReg(R6, 0x00000000)
T1CFC 5281:878.339 - 0.017ms returns 0
T1CFC 5281:878.354 JLINK_WriteReg(R7, 0x00000000)
T1CFC 5281:878.365 - 0.016ms returns 0
T1CFC 5281:878.378 JLINK_WriteReg(R8, 0x00000000)
T1CFC 5281:878.396 - 0.025ms returns 0
T1CFC 5281:878.411 JLINK_WriteReg(R9, 0x2000017C)
T1CFC 5281:878.423 - 0.017ms returns 0
T1CFC 5281:878.437 JLINK_WriteReg(R10, 0x00000000)
T1CFC 5281:878.447 - 0.016ms returns 0
T1CFC 5281:878.461 JLINK_WriteReg(R11, 0x00000000)
T1CFC 5281:878.472 - 0.019ms returns 0
T1CFC 5281:878.488 JLINK_WriteReg(R12, 0x00000000)
T1CFC 5281:878.499 - 0.016ms returns 0
T1CFC 5281:878.522 JLINK_WriteReg(R13 (SP), 0x20001000)
T1CFC 5281:878.540 - 0.023ms returns 0
T1CFC 5281:878.553 JLINK_WriteReg(R14, 0x20000001)
T1CFC 5281:878.564 - 0.015ms returns 0
T1CFC 5281:878.577 JLINK_WriteReg(R15 (PC), 0x200000BC)
T1CFC 5281:878.588 - 0.015ms returns 0
T1CFC 5281:878.600 JLINK_WriteReg(XPSR, 0x01000000)
T1CFC 5281:878.611 - 0.016ms returns 0
T1CFC 5281:878.624 JLINK_WriteReg(MSP, 0x20001000)
T1CFC 5281:878.635 - 0.016ms returns 0
T1CFC 5281:878.647 JLINK_WriteReg(PSP, 0x20001000)
T1CFC 5281:878.658 - 0.016ms returns 0
T1CFC 5281:878.671 JLINK_WriteReg(CFBP, 0x00000000)
T1CFC 5281:878.682 - 0.016ms returns 0
T1CFC 5281:878.697 JLINK_SetBPEx(Addr = 0x20000000, Type = 0xFFFFFFF2)
T1CFC 5281:878.710 - 0.018ms returns 0x00000005
T1CFC 5281:878.725 JLINK_Go()
T1CFC 5281:878.750   CPU_ReadMem(4 bytes @ 0xE0001000)
T1CFC 5281:882.781 - 4.073ms
T1CFC 5281:882.812 JLINK_IsHalted()
T1CFC 5281:883.472 - 0.671ms returns FALSE
T1CFC 5281:883.496 JLINK_HasError()
T1CFC 5281:888.024 JLINK_IsHalted()
T1CFC 5281:888.746 - 0.729ms returns FALSE
T1CFC 5281:888.763 JLINK_HasError()
T1CFC 5281:890.022 JLINK_IsHalted()
T1CFC 5281:890.619 - 0.604ms returns FALSE
T1CFC 5281:890.635 JLINK_HasError()
T1CFC 5281:892.022 JLINK_IsHalted()
T1CFC 5281:892.631 - 0.625ms returns FALSE
T1CFC 5281:892.659 JLINK_HasError()
T1CFC 5281:894.026 JLINK_IsHalted()
T1CFC 5281:894.846 - 0.837ms returns FALSE
T1CFC 5281:894.876 JLINK_HasError()
T1CFC 5281:898.025 JLINK_IsHalted()
T1CFC 5281:898.743 - 0.725ms returns FALSE
T1CFC 5281:898.758 JLINK_HasError()
T1CFC 5281:900.019 JLINK_IsHalted()
T1CFC 5281:900.616 - 0.602ms returns FALSE
T1CFC 5281:900.629 JLINK_HasError()
T1CFC 5281:904.027 JLINK_IsHalted()
T1CFC 5281:904.637 - 0.625ms returns FALSE
T1CFC 5281:904.666 JLINK_HasError()
T1CFC 5281:906.025 JLINK_IsHalted()
T1CFC 5281:906.644 - 0.628ms returns FALSE
T1CFC 5281:906.663 JLINK_HasError()
T1CFC 5281:910.025 JLINK_IsHalted()
T1CFC 5281:910.743 - 0.724ms returns FALSE
T1CFC 5281:910.757 JLINK_HasError()
T1CFC 5281:914.025 JLINK_IsHalted()
T1CFC 5281:914.619 - 0.610ms returns FALSE
T1CFC 5281:914.647 JLINK_HasError()
T1CFC 5281:918.025 JLINK_IsHalted()
T1CFC 5281:918.729 - 0.710ms returns FALSE
T1CFC 5281:918.744 JLINK_HasError()
T1CFC 5281:926.029 JLINK_IsHalted()
T1CFC 5281:926.736 - 0.713ms returns FALSE
T1CFC 5281:926.751 JLINK_HasError()
T1CFC 5281:933.031 JLINK_IsHalted()
T1CFC 5281:933.733 - 0.713ms returns FALSE
T1CFC 5281:933.757 JLINK_HasError()
T1CFC 5281:937.025 JLINK_IsHalted()
T1CFC 5281:937.753 - 0.739ms returns FALSE
T1CFC 5281:937.774 JLINK_HasError()
T1CFC 5281:993.038 JLINK_IsHalted()
T1CFC 5281:993.730 - 0.702ms returns FALSE
T1CFC 5281:993.750 JLINK_HasError()
T1CFC 5282:001.032 JLINK_IsHalted()
T1CFC 5282:001.730 - 0.710ms returns FALSE
T1CFC 5282:001.754 JLINK_HasError()
T1CFC 5282:014.033 JLINK_IsHalted()
T1CFC 5282:014.751 - 0.733ms returns FALSE
T1CFC 5282:014.778 JLINK_HasError()
T1CFC 5282:028.036 JLINK_IsHalted()
T1CFC 5282:028.730 - 0.701ms returns FALSE
T1CFC 5282:028.745 JLINK_HasError()
T1CFC 5282:042.043 JLINK_IsHalted()
T1CFC 5282:042.721 - 0.689ms returns FALSE
T1CFC 5282:042.743 JLINK_HasError()
T1CFC 5282:048.046 JLINK_IsHalted()
T1CFC 5282:048.727 - 0.694ms returns FALSE
T1CFC 5282:048.749 JLINK_HasError()
T1CFC 5282:053.033 JLINK_IsHalted()
T1CFC 5282:053.735 - 0.713ms returns FALSE
T1CFC 5282:053.757 JLINK_HasError()
T1CFC 5282:057.034 JLINK_IsHalted()
T1CFC 5282:057.737 - 0.710ms returns FALSE
T1CFC 5282:057.752 JLINK_HasError()
T1CFC 5282:059.035 JLINK_IsHalted()
T1CFC 5282:059.745 - 0.720ms returns FALSE
T1CFC 5282:059.768 JLINK_HasError()
T1CFC 5282:063.040 JLINK_IsHalted()
T1CFC 5282:063.729 - 0.695ms returns FALSE
T1CFC 5282:063.744 JLINK_HasError()
T1CFC 5282:067.038 JLINK_IsHalted()
T1CFC 5282:067.728 - 0.697ms returns FALSE
T1CFC 5282:067.744 JLINK_HasError()
T1CFC 5282:071.036 JLINK_IsHalted()
T1CFC 5282:071.730 - 0.701ms returns FALSE
T1CFC 5282:071.745 JLINK_HasError()
T1CFC 5282:076.046 JLINK_IsHalted()
T1CFC 5282:076.735 - 0.700ms returns FALSE
T1CFC 5282:076.756 JLINK_HasError()
T1CFC 5282:080.040 JLINK_IsHalted()
T1CFC 5282:080.729 - 0.696ms returns FALSE
T1CFC 5282:080.744 JLINK_HasError()
T1CFC 5282:085.041 JLINK_IsHalted()
T1CFC 5282:085.729 - 0.696ms returns FALSE
T1CFC 5282:085.745 JLINK_HasError()
T1CFC 5282:106.037 JLINK_IsHalted()
T1CFC 5282:106.718 - 0.689ms returns FALSE
T1CFC 5282:106.736 JLINK_HasError()
T1CFC 5282:110.046 JLINK_IsHalted()
T1CFC 5282:110.730 - 0.694ms returns FALSE
T1CFC 5282:110.752 JLINK_HasError()
T1CFC 5282:115.046 JLINK_IsHalted()
T1CFC 5282:115.726 - 0.691ms returns FALSE
T1CFC 5282:115.747 JLINK_HasError()
T1CFC 5282:119.051 JLINK_IsHalted()
T1CFC 5282:119.732 - 0.694ms returns FALSE
T1CFC 5282:119.755 JLINK_HasError()
T1CFC 5282:126.053 JLINK_IsHalted()
T1CFC 5282:126.770 - 0.729ms returns FALSE
T1CFC 5282:126.793 JLINK_HasError()
T1CFC 5282:134.042 JLINK_IsHalted()
T1CFC 5282:134.733 - 0.705ms returns FALSE
T1CFC 5282:134.757 JLINK_HasError()
T1CFC 5282:142.048 JLINK_IsHalted()
T1CFC 5282:142.848 - 0.807ms returns FALSE
T1CFC 5282:142.863 JLINK_HasError()
T1CFC 5282:144.035 JLINK_IsHalted()
T1CFC 5282:144.745 - 0.721ms returns FALSE
T1CFC 5282:144.767 JLINK_HasError()
T1CFC 5282:146.044 JLINK_IsHalted()
T1CFC 5282:146.726 - 0.692ms returns FALSE
T1CFC 5282:146.746 JLINK_HasError()
T1CFC 5282:150.051 JLINK_IsHalted()
T1CFC 5282:150.728 - 0.687ms returns FALSE
T1CFC 5282:150.747 JLINK_HasError()
T1CFC 5282:154.047 JLINK_IsHalted()
T1CFC 5282:154.739 - 0.704ms returns FALSE
T1CFC 5282:154.761 JLINK_HasError()
T1CFC 5282:162.041 JLINK_IsHalted()
T1CFC 5282:162.723 - 0.688ms returns FALSE
T1CFC 5282:162.738 JLINK_HasError()
T1CFC 5282:164.041 JLINK_IsHalted()
T1CFC 5282:164.602 - 0.569ms returns FALSE
T1CFC 5282:164.619 JLINK_HasError()
T1CFC 5282:166.042 JLINK_IsHalted()
T1CFC 5282:166.600 - 0.564ms returns FALSE
T1CFC 5282:166.613 JLINK_HasError()
T1CFC 5282:168.038 JLINK_IsHalted()
T1CFC 5282:168.601 - 0.570ms returns FALSE
T1CFC 5282:168.616 JLINK_HasError()
T1CFC 5282:170.040 JLINK_IsHalted()
T1CFC 5282:170.612 - 0.580ms returns FALSE
T1CFC 5282:170.628 JLINK_HasError()
T1CFC 5282:172.038 JLINK_IsHalted()
T1CFC 5282:172.620 - 0.590ms returns FALSE
T1CFC 5282:172.636 JLINK_HasError()
T1CFC 5282:174.041 JLINK_IsHalted()
T1CFC 5282:174.617 - 0.585ms returns FALSE
T1CFC 5282:174.635 JLINK_HasError()
T1CFC 5282:176.047 JLINK_IsHalted()
T1CFC 5282:176.784 - 0.746ms returns FALSE
T1CFC 5282:176.803 JLINK_HasError()
T1CFC 5282:178.038 JLINK_IsHalted()
T1CFC 5282:178.612 - 0.582ms returns FALSE
T1CFC 5282:178.630 JLINK_HasError()
T1CFC 5282:180.040 JLINK_IsHalted()
T1CFC 5282:180.605 - 0.573ms returns FALSE
T1CFC 5282:180.622 JLINK_HasError()
T1CFC 5282:182.039 JLINK_IsHalted()
T1CFC 5282:182.611 - 0.580ms returns FALSE
T1CFC 5282:182.628 JLINK_HasError()
T1CFC 5282:184.039 JLINK_IsHalted()
T1CFC 5282:184.633 - 0.611ms returns FALSE
T1CFC 5282:184.664 JLINK_HasError()
T1CFC 5282:186.043 JLINK_IsHalted()
T1CFC 5282:186.727 - 0.692ms returns FALSE
T1CFC 5282:186.745 JLINK_HasError()
T1CFC 5282:188.043 JLINK_IsHalted()
T1CFC 5282:188.744 - 0.712ms returns FALSE
T1CFC 5282:188.766 JLINK_HasError()
T1CFC 5282:190.047 JLINK_IsHalted()
T1CFC 5282:190.731 - 0.693ms returns FALSE
T1CFC 5282:190.750 JLINK_HasError()
T1CFC 5282:201.047 JLINK_IsHalted()
T1CFC 5282:201.745 - 0.710ms returns FALSE
T1CFC 5282:201.769 JLINK_HasError()
T1CFC 5282:223.046 JLINK_IsHalted()
T1CFC 5282:223.730 - 0.693ms returns FALSE
T1CFC 5282:223.748 JLINK_HasError()
T1CFC 5282:231.050 JLINK_IsHalted()
T1CFC 5282:231.727 - 0.751ms returns FALSE
T1CFC 5282:231.815 JLINK_HasError()
T1CFC 5282:243.069 JLINK_IsHalted()
T1CFC 5282:243.729 - 0.672ms returns FALSE
T1CFC 5282:243.751 JLINK_HasError()
T1CFC 5282:251.051 JLINK_IsHalted()
T1CFC 5282:251.717 - 0.676ms returns FALSE
T1CFC 5282:251.737 JLINK_HasError()
T1CFC 5282:261.051 JLINK_IsHalted()
T1CFC 5282:261.733 - 0.691ms returns FALSE
T1CFC 5282:261.751 JLINK_HasError()
T1CFC 5282:265.059 JLINK_IsHalted()
T1CFC 5282:265.733 - 0.685ms returns FALSE
T1CFC 5282:265.755 JLINK_HasError()
T1CFC 5282:274.054 JLINK_IsHalted()
T1CFC 5282:277.651   CPU_ReadMem(2 bytes @ 0x20000000)
T1CFC 5282:278.261 - 4.213ms returns TRUE
T1CFC 5282:278.278 JLINK_ReadReg(R15 (PC))
T1CFC 5282:278.291 - 0.016ms returns 0x20000000
T1CFC 5282:278.301 JLINK_ClrBPEx(BPHandle = 0x00000005)
T1CFC 5282:278.310 - 0.013ms returns 0x00
T1CFC 5282:278.320 JLINK_ReadReg(R0)
T1CFC 5282:278.330 - 0.013ms returns 0x00000000
T1CFC 5282:278.737 JLINK_HasError()
T1CFC 5282:278.754 JLINK_WriteReg(R0, 0x00000001)
T1CFC 5282:278.765 - 0.015ms returns 0
T1CFC 5282:278.775 JLINK_WriteReg(R1, 0x00004000)
T1CFC 5282:278.784 - 0.013ms returns 0
T1CFC 5282:278.793 JLINK_WriteReg(R2, 0x000000FF)
T1CFC 5282:278.802 - 0.013ms returns 0
T1CFC 5282:278.812 JLINK_WriteReg(R3, 0x00000000)
T1CFC 5282:278.822 - 0.013ms returns 0
T1CFC 5282:278.831 JLINK_WriteReg(R4, 0x00000000)
T1CFC 5282:278.840 - 0.013ms returns 0
T1CFC 5282:278.850 JLINK_WriteReg(R5, 0x00000000)
T1CFC 5282:278.858 - 0.013ms returns 0
T1CFC 5282:278.868 JLINK_WriteReg(R6, 0x00000000)
T1CFC 5282:278.877 - 0.013ms returns 0
T1CFC 5282:278.886 JLINK_WriteReg(R7, 0x00000000)
T1CFC 5282:278.895 - 0.013ms returns 0
T1CFC 5282:278.905 JLINK_WriteReg(R8, 0x00000000)
T1CFC 5282:278.913 - 0.012ms returns 0
T1CFC 5282:278.923 JLINK_WriteReg(R9, 0x2000017C)
T1CFC 5282:278.931 - 0.012ms returns 0
T1CFC 5282:278.941 JLINK_WriteReg(R10, 0x00000000)
T1CFC 5282:278.950 - 0.013ms returns 0
T1CFC 5282:278.959 JLINK_WriteReg(R11, 0x00000000)
T1CFC 5282:278.968 - 0.012ms returns 0
T1CFC 5282:278.978 JLINK_WriteReg(R12, 0x00000000)
T1CFC 5282:278.986 - 0.012ms returns 0
T1CFC 5282:278.996 JLINK_WriteReg(R13 (SP), 0x20001000)
T1CFC 5282:279.005 - 0.013ms returns 0
T1CFC 5282:279.014 JLINK_WriteReg(R14, 0x20000001)
T1CFC 5282:279.023 - 0.012ms returns 0
T1CFC 5282:279.032 JLINK_WriteReg(R15 (PC), 0x20000082)
T1CFC 5282:279.044 - 0.017ms returns 0
T1CFC 5282:279.057 JLINK_WriteReg(XPSR, 0x01000000)
T1CFC 5282:279.068 - 0.016ms returns 0
T1CFC 5282:279.079 JLINK_WriteReg(MSP, 0x20001000)
T1CFC 5282:279.088 - 0.013ms returns 0
T1CFC 5282:279.097 JLINK_WriteReg(PSP, 0x20001000)
T1CFC 5282:279.106 - 0.013ms returns 0
T1CFC 5282:279.116 JLINK_WriteReg(CFBP, 0x00000000)
T1CFC 5282:279.125 - 0.013ms returns 0
T1CFC 5282:279.135 JLINK_SetBPEx(Addr = 0x20000000, Type = 0xFFFFFFF2)
T1CFC 5282:279.145 - 0.014ms returns 0x00000006
T1CFC 5282:279.155 JLINK_Go()
T1CFC 5282:279.171   CPU_ReadMem(4 bytes @ 0xE0001000)
T1CFC 5282:283.280 - 4.141ms
T1CFC 5282:283.308 JLINK_IsHalted()
T1CFC 5282:286.931   CPU_ReadMem(2 bytes @ 0x20000000)
T1CFC 5282:287.627 - 4.326ms returns TRUE
T1CFC 5282:287.647 JLINK_ReadReg(R15 (PC))
T1CFC 5282:287.659 - 0.017ms returns 0x20000000
T1CFC 5282:287.671 JLINK_ClrBPEx(BPHandle = 0x00000006)
T1CFC 5282:287.680 - 0.013ms returns 0x00
T1CFC 5282:287.692 JLINK_ReadReg(R0)
T1CFC 5282:287.701 - 0.013ms returns 0x00000000
T1CFC 5282:348.317 JLINK_WriteMem(0x20000000, 0x180 Bytes, ...)
T1CFC 5282:348.340   Data:  00 BE 0A E0 0D 78 2D 06 68 40 08 24 40 00 00 D3 ...
T1CFC 5282:348.370   CPU_WriteMem(384 bytes @ 0x20000000)
T1CFC 5282:353.653 - 5.352ms returns 0x180
T1CFC 5282:353.714 JLINK_HasError()
T1CFC 5282:353.730 JLINK_WriteReg(R0, 0x08000000)
T1CFC 5282:353.746 - 0.022ms returns 0
T1CFC 5282:353.760 JLINK_WriteReg(R1, 0x0A037A00)
T1CFC 5282:353.772 - 0.018ms returns 0
T1CFC 5282:353.785 JLINK_WriteReg(R2, 0x00000002)
T1CFC 5282:353.797 - 0.017ms returns 0
T1CFC 5282:353.810 JLINK_WriteReg(R3, 0x00000000)
T1CFC 5282:353.827 - 0.024ms returns 0
T1CFC 5282:353.843 JLINK_WriteReg(R4, 0x00000000)
T1CFC 5282:353.854 - 0.017ms returns 0
T1CFC 5282:353.867 JLINK_WriteReg(R5, 0x00000000)
T1CFC 5282:353.879 - 0.017ms returns 0
T1CFC 5282:353.892 JLINK_WriteReg(R6, 0x00000000)
T1CFC 5282:353.903 - 0.017ms returns 0
T1CFC 5282:353.916 JLINK_WriteReg(R7, 0x00000000)
T1CFC 5282:353.928 - 0.017ms returns 0
T1CFC 5282:353.941 JLINK_WriteReg(R8, 0x00000000)
T1CFC 5282:353.953 - 0.017ms returns 0
T1CFC 5282:353.965 JLINK_WriteReg(R9, 0x2000017C)
T1CFC 5282:353.977 - 0.017ms returns 0
T1CFC 5282:353.990 JLINK_WriteReg(R10, 0x00000000)
T1CFC 5282:354.001 - 0.017ms returns 0
T1CFC 5282:354.014 JLINK_WriteReg(R11, 0x00000000)
T1CFC 5282:354.026 - 0.017ms returns 0
T1CFC 5282:354.039 JLINK_WriteReg(R12, 0x00000000)
T1CFC 5282:354.052 - 0.019ms returns 0
T1CFC 5282:354.065 JLINK_WriteReg(R13 (SP), 0x20001000)
T1CFC 5282:354.078 - 0.018ms returns 0
T1CFC 5282:354.090 JLINK_WriteReg(R14, 0x20000001)
T1CFC 5282:354.102 - 0.017ms returns 0
T1CFC 5282:354.115 JLINK_WriteReg(R15 (PC), 0x20000054)
T1CFC 5282:354.127 - 0.017ms returns 0
T1CFC 5282:354.140 JLINK_WriteReg(XPSR, 0x01000000)
T1CFC 5282:354.151 - 0.017ms returns 0
T1CFC 5282:354.165 JLINK_WriteReg(MSP, 0x20001000)
T1CFC 5282:354.176 - 0.017ms returns 0
T1CFC 5282:354.189 JLINK_WriteReg(PSP, 0x20001000)
T1CFC 5282:354.201 - 0.017ms returns 0
T1CFC 5282:354.214 JLINK_WriteReg(CFBP, 0x00000000)
T1CFC 5282:354.226 - 0.017ms returns 0
T1CFC 5282:354.239 JLINK_SetBPEx(Addr = 0x20000000, Type = 0xFFFFFFF2)
T1CFC 5282:354.257   CPU_ReadMem(2 bytes @ 0x20000000)
T1CFC 5282:354.877 - 0.648ms returns 0x00000007
T1CFC 5282:354.896 JLINK_Go()
T1CFC 5282:354.912   CPU_WriteMem(2 bytes @ 0x20000000)
T1CFC 5282:355.535   CPU_ReadMem(4 bytes @ 0xE0001000)
T1CFC 5282:359.555 - 4.682ms
T1CFC 5282:359.593 JLINK_IsHalted()
T1CFC 5282:363.249   CPU_ReadMem(2 bytes @ 0x20000000)
T1CFC 5282:363.864 - 4.279ms returns TRUE
T1CFC 5282:363.887 JLINK_ReadReg(R15 (PC))
T1CFC 5282:363.903 - 0.021ms returns 0x20000000
T1CFC 5282:363.918 JLINK_ClrBPEx(BPHandle = 0x00000007)
T1CFC 5282:363.930 - 0.017ms returns 0x00
T1CFC 5282:363.945 JLINK_ReadReg(R0)
T1CFC 5282:363.956 - 0.017ms returns 0x00000000
T1CFC 5282:364.459 JLINK_WriteMem(0x20000180, 0x280 Bytes, ...)
T1CFC 5282:364.481   Data:  80 24 00 20 D5 02 00 08 11 2D 00 08 F7 23 00 08 ...
T1CFC 5282:364.511   CPU_WriteMem(640 bytes @ 0x20000180)
T1CFC 5282:372.485 - 8.038ms returns 0x280
T1CFC 5282:372.509 JLINK_WriteMem(0x20000400, 0x180 Bytes, ...)
T1CFC 5282:372.522   Data:  73 87 F3 29 00 F0 78 87 00 20 70 47 1F B5 05 F0 ...
T1CFC 5282:372.548   CPU_WriteMem(384 bytes @ 0x20000400)
T1CFC 5282:377.766 - 5.281ms returns 0x180
T1CFC 5282:377.807 JLINK_HasError()
T1CFC 5282:377.822 JLINK_WriteReg(R0, 0x08000000)
T1CFC 5282:377.839 - 0.023ms returns 0
T1CFC 5282:377.853 JLINK_WriteReg(R1, 0x00000400)
T1CFC 5282:377.864 - 0.017ms returns 0
T1CFC 5282:377.877 JLINK_WriteReg(R2, 0x20000180)
T1CFC 5282:377.889 - 0.017ms returns 0
T1CFC 5282:377.902 JLINK_WriteReg(R3, 0x00000000)
T1CFC 5282:377.914 - 0.017ms returns 0
T1CFC 5282:377.927 JLINK_WriteReg(R4, 0x00000000)
T1CFC 5282:377.939 - 0.017ms returns 0
T1CFC 5282:377.951 JLINK_WriteReg(R5, 0x00000000)
T1CFC 5282:377.963 - 0.017ms returns 0
T1CFC 5282:377.976 JLINK_WriteReg(R6, 0x00000000)
T1CFC 5282:377.987 - 0.017ms returns 0
T1CFC 5282:378.000 JLINK_WriteReg(R7, 0x00000000)
T1CFC 5282:378.012 - 0.017ms returns 0
T1CFC 5282:378.024 JLINK_WriteReg(R8, 0x00000000)
T1CFC 5282:378.037 - 0.017ms returns 0
T1CFC 5282:378.052 JLINK_WriteReg(R9, 0x2000017C)
T1CFC 5282:378.081 - 0.039ms returns 0
T1CFC 5282:378.099 JLINK_WriteReg(R10, 0x00000000)
T1CFC 5282:378.111 - 0.017ms returns 0
T1CFC 5282:378.124 JLINK_WriteReg(R11, 0x00000000)
T1CFC 5282:378.136 - 0.017ms returns 0
T1CFC 5282:378.148 JLINK_WriteReg(R12, 0x00000000)
T1CFC 5282:378.160 - 0.017ms returns 0
T1CFC 5282:378.172 JLINK_WriteReg(R13 (SP), 0x20001000)
T1CFC 5282:378.185 - 0.023ms returns 0
T1CFC 5282:378.207 JLINK_WriteReg(R14, 0x20000001)
T1CFC 5282:378.219 - 0.017ms returns 0
T1CFC 5282:378.231 JLINK_WriteReg(R15 (PC), 0x20000108)
T1CFC 5282:378.243 - 0.017ms returns 0
T1CFC 5282:378.256 JLINK_WriteReg(XPSR, 0x01000000)
T1CFC 5282:378.268 - 0.017ms returns 0
T1CFC 5282:378.281 JLINK_WriteReg(MSP, 0x20001000)
T1CFC 5282:378.292 - 0.017ms returns 0
T1CFC 5282:378.305 JLINK_WriteReg(PSP, 0x20001000)
T1CFC 5282:378.317 - 0.017ms returns 0
T1CFC 5282:378.329 JLINK_WriteReg(CFBP, 0x00000000)
T1CFC 5282:378.341 - 0.017ms returns 0
T1CFC 5282:378.354 JLINK_SetBPEx(Addr = 0x20000000, Type = 0xFFFFFFF2)
T1CFC 5282:378.368 - 0.019ms returns 0x00000008
T1CFC 5282:378.381 JLINK_Go()
T1CFC 5282:378.405   CPU_ReadMem(4 bytes @ 0xE0001000)
T1CFC 5282:382.532 - 4.171ms
T1CFC 5282:382.565 JLINK_IsHalted()
T1CFC 5282:383.226 - 0.669ms returns FALSE
T1CFC 5282:383.244 JLINK_HasError()
T1CFC 5282:394.067 JLINK_IsHalted()
T1CFC 5282:397.612   CPU_ReadMem(2 bytes @ 0x20000000)
T1CFC 5282:398.245 - 4.185ms returns TRUE
T1CFC 5282:398.263 JLINK_ReadReg(R15 (PC))
T1CFC 5282:398.276 - 0.018ms returns 0x20000000
T1CFC 5282:398.288 JLINK_ClrBPEx(BPHandle = 0x00000008)
T1CFC 5282:398.299 - 0.015ms returns 0x00
T1CFC 5282:398.310 JLINK_ReadReg(R0)
T1CFC 5282:398.321 - 0.015ms returns 0x00000000
T1CFC 5282:399.045 JLINK_WriteMem(0x20000180, 0x280 Bytes, ...)
T1CFC 5282:399.067   Data:  04 D5 11 A5 01 24 01 E0 00 F0 8E FA 00 21 0A 22 ...
T1CFC 5282:399.091   CPU_WriteMem(640 bytes @ 0x20000180)
T1CFC 5282:407.135 - 8.106ms returns 0x280
T1CFC 5282:407.165 JLINK_WriteMem(0x20000400, 0x180 Bytes, ...)
T1CFC 5282:407.176   Data:  00 28 02 D0 6D 1C F1 E7 28 46 30 BD 40 EA 01 03 ...
T1CFC 5282:407.204   CPU_WriteMem(384 bytes @ 0x20000400)
T1CFC 5282:412.432 - 5.288ms returns 0x180
T1CFC 5282:412.470 JLINK_HasError()
T1CFC 5282:412.486 JLINK_WriteReg(R0, 0x08000400)
T1CFC 5282:412.504 - 0.024ms returns 0
T1CFC 5282:412.517 JLINK_WriteReg(R1, 0x00000400)
T1CFC 5282:412.529 - 0.017ms returns 0
T1CFC 5282:412.542 JLINK_WriteReg(R2, 0x20000180)
T1CFC 5282:412.554 - 0.017ms returns 0
T1CFC 5282:412.567 JLINK_WriteReg(R3, 0x00000000)
T1CFC 5282:412.579 - 0.017ms returns 0
T1CFC 5282:412.591 JLINK_WriteReg(R4, 0x00000000)
T1CFC 5282:412.603 - 0.017ms returns 0
T1CFC 5282:412.616 JLINK_WriteReg(R5, 0x00000000)
T1CFC 5282:412.628 - 0.017ms returns 0
T1CFC 5282:412.640 JLINK_WriteReg(R6, 0x00000000)
T1CFC 5282:412.652 - 0.017ms returns 0
T1CFC 5282:412.665 JLINK_WriteReg(R7, 0x00000000)
T1CFC 5282:412.676 - 0.017ms returns 0
T1CFC 5282:412.689 JLINK_WriteReg(R8, 0x00000000)
T1CFC 5282:412.701 - 0.017ms returns 0
T1CFC 5282:412.714 JLINK_WriteReg(R9, 0x2000017C)
T1CFC 5282:412.725 - 0.017ms returns 0
T1CFC 5282:412.738 JLINK_WriteReg(R10, 0x00000000)
T1CFC 5282:412.750 - 0.017ms returns 0
T1CFC 5282:412.763 JLINK_WriteReg(R11, 0x00000000)
T1CFC 5282:412.774 - 0.017ms returns 0
T1CFC 5282:412.787 JLINK_WriteReg(R12, 0x00000000)
T1CFC 5282:412.798 - 0.017ms returns 0
T1CFC 5282:412.811 JLINK_WriteReg(R13 (SP), 0x20001000)
T1CFC 5282:412.824 - 0.018ms returns 0
T1CFC 5282:412.837 JLINK_WriteReg(R14, 0x20000001)
T1CFC 5282:412.848 - 0.017ms returns 0
T1CFC 5282:412.861 JLINK_WriteReg(R15 (PC), 0x20000108)
T1CFC 5282:412.873 - 0.017ms returns 0
T1CFC 5282:412.886 JLINK_WriteReg(XPSR, 0x01000000)
T1CFC 5282:412.898 - 0.017ms returns 0
T1CFC 5282:412.911 JLINK_WriteReg(MSP, 0x20001000)
T1CFC 5282:412.922 - 0.017ms returns 0
T1CFC 5282:412.935 JLINK_WriteReg(PSP, 0x20001000)
T1CFC 5282:412.947 - 0.017ms returns 0
T1CFC 5282:412.960 JLINK_WriteReg(CFBP, 0x00000000)
T1CFC 5282:412.972 - 0.017ms returns 0
T1CFC 5282:412.984 JLINK_SetBPEx(Addr = 0x20000000, Type = 0xFFFFFFF2)
T1CFC 5282:412.998 - 0.019ms returns 0x00000009
T1CFC 5282:413.011 JLINK_Go()
T1CFC 5282:413.036   CPU_ReadMem(4 bytes @ 0xE0001000)
T1CFC 5282:417.128 - 4.136ms
T1CFC 5282:417.163 JLINK_IsHalted()
T1CFC 5282:417.730 - 0.576ms returns FALSE
T1CFC 5282:417.752 JLINK_HasError()
T1CFC 5282:422.066 JLINK_IsHalted()
T1CFC 5282:425.675   CPU_ReadMem(2 bytes @ 0x20000000)
T1CFC 5282:426.410 - 4.359ms returns TRUE
T1CFC 5282:426.437 JLINK_ReadReg(R15 (PC))
T1CFC 5282:426.450 - 0.017ms returns 0x20000000
T1CFC 5282:426.460 JLINK_ClrBPEx(BPHandle = 0x00000009)
T1CFC 5282:426.469 - 0.013ms returns 0x00
T1CFC 5282:426.479 JLINK_ReadReg(R0)
T1CFC 5282:426.488 - 0.013ms returns 0x00000000
T1CFC 5282:427.128 JLINK_WriteMem(0x20000180, 0x280 Bytes, ...)
T1CFC 5282:427.144   Data:  A0 E8 0C 50 A0 E8 0C 50 B1 F1 20 01 BF F4 F7 AF ...
T1CFC 5282:427.169   CPU_WriteMem(640 bytes @ 0x20000180)
T1CFC 5282:435.267 - 8.156ms returns 0x280
T1CFC 5282:435.297 JLINK_WriteMem(0x20000400, 0x180 Bytes, ...)
T1CFC 5282:435.308   Data:  0D 46 7B 44 FF F7 CB FF 04 46 28 46 00 F0 78 FB ...
T1CFC 5282:435.333   CPU_WriteMem(384 bytes @ 0x20000400)
T1CFC 5282:440.521 - 5.235ms returns 0x180
T1CFC 5282:440.545 JLINK_HasError()
T1CFC 5282:440.560 JLINK_WriteReg(R0, 0x08000800)
T1CFC 5282:440.576 - 0.021ms returns 0
T1CFC 5282:440.589 JLINK_WriteReg(R1, 0x00000400)
T1CFC 5282:440.601 - 0.017ms returns 0
T1CFC 5282:440.614 JLINK_WriteReg(R2, 0x20000180)
T1CFC 5282:440.626 - 0.017ms returns 0
T1CFC 5282:440.639 JLINK_WriteReg(R3, 0x00000000)
T1CFC 5282:440.651 - 0.017ms returns 0
T1CFC 5282:440.664 JLINK_WriteReg(R4, 0x00000000)
T1CFC 5282:440.676 - 0.017ms returns 0
T1CFC 5282:440.689 JLINK_WriteReg(R5, 0x00000000)
T1CFC 5282:440.700 - 0.017ms returns 0
T1CFC 5282:440.713 JLINK_WriteReg(R6, 0x00000000)
T1CFC 5282:440.725 - 0.017ms returns 0
T1CFC 5282:440.738 JLINK_WriteReg(R7, 0x00000000)
T1CFC 5282:440.749 - 0.017ms returns 0
T1CFC 5282:440.762 JLINK_WriteReg(R8, 0x00000000)
T1CFC 5282:440.774 - 0.017ms returns 0
T1CFC 5282:440.786 JLINK_WriteReg(R9, 0x2000017C)
T1CFC 5282:440.798 - 0.017ms returns 0
T1CFC 5282:440.811 JLINK_WriteReg(R10, 0x00000000)
T1CFC 5282:440.823 - 0.017ms returns 0
T1CFC 5282:440.836 JLINK_WriteReg(R11, 0x00000000)
T1CFC 5282:440.847 - 0.017ms returns 0
T1CFC 5282:440.860 JLINK_WriteReg(R12, 0x00000000)
T1CFC 5282:440.872 - 0.017ms returns 0
T1CFC 5282:440.884 JLINK_WriteReg(R13 (SP), 0x20001000)
T1CFC 5282:440.897 - 0.018ms returns 0
T1CFC 5282:440.910 JLINK_WriteReg(R14, 0x20000001)
T1CFC 5282:440.922 - 0.017ms returns 0
T1CFC 5282:440.934 JLINK_WriteReg(R15 (PC), 0x20000108)
T1CFC 5282:440.946 - 0.017ms returns 0
T1CFC 5282:440.959 JLINK_WriteReg(XPSR, 0x01000000)
T1CFC 5282:440.971 - 0.017ms returns 0
T1CFC 5282:440.984 JLINK_WriteReg(MSP, 0x20001000)
T1CFC 5282:440.995 - 0.017ms returns 0
T1CFC 5282:441.008 JLINK_WriteReg(PSP, 0x20001000)
T1CFC 5282:441.020 - 0.017ms returns 0
T1CFC 5282:441.033 JLINK_WriteReg(CFBP, 0x00000000)
T1CFC 5282:441.044 - 0.017ms returns 0
T1CFC 5282:441.060 JLINK_SetBPEx(Addr = 0x20000000, Type = 0xFFFFFFF2)
T1CFC 5282:441.073 - 0.019ms returns 0x0000000A
T1CFC 5282:441.086 JLINK_Go()
T1CFC 5282:441.108   CPU_ReadMem(4 bytes @ 0xE0001000)
T1CFC 5282:445.280 - 4.214ms
T1CFC 5282:445.317 JLINK_IsHalted()
T1CFC 5282:446.022 - 0.713ms returns FALSE
T1CFC 5282:446.042 JLINK_HasError()
T1CFC 5282:448.059 JLINK_IsHalted()
T1CFC 5282:448.742 - 0.691ms returns FALSE
T1CFC 5282:448.758 JLINK_HasError()
T1CFC 5282:450.080 JLINK_IsHalted()
T1CFC 5282:453.646   CPU_ReadMem(2 bytes @ 0x20000000)
T1CFC 5282:454.265 - 4.200ms returns TRUE
T1CFC 5282:454.292 JLINK_ReadReg(R15 (PC))
T1CFC 5282:454.308 - 0.021ms returns 0x20000000
T1CFC 5282:454.322 JLINK_ClrBPEx(BPHandle = 0x0000000A)
T1CFC 5282:454.335 - 0.018ms returns 0x00
T1CFC 5282:454.348 JLINK_ReadReg(R0)
T1CFC 5282:454.360 - 0.017ms returns 0x00000000
T1CFC 5282:455.193 JLINK_WriteMem(0x20000180, 0x280 Bytes, ...)
T1CFC 5282:455.217   Data:  25 07 07 D5 A4 06 00 D4 21 B1 C4 69 01 23 0D A2 ...
T1CFC 5282:455.248   CPU_WriteMem(640 bytes @ 0x20000180)
T1CFC 5282:463.273 - 8.101ms returns 0x280
T1CFC 5282:463.309 JLINK_WriteMem(0x20000400, 0x180 Bytes, ...)
T1CFC 5282:463.322   Data:  30 28 01 D1 00 22 7F 1E 00 2A 09 97 84 D0 1D E0 ...
T1CFC 5282:463.353   CPU_WriteMem(384 bytes @ 0x20000400)
T1CFC 5282:468.531 - 5.239ms returns 0x180
T1CFC 5282:468.564 JLINK_HasError()
T1CFC 5282:468.580 JLINK_WriteReg(R0, 0x08000C00)
T1CFC 5282:468.597 - 0.023ms returns 0
T1CFC 5282:468.611 JLINK_WriteReg(R1, 0x00000400)
T1CFC 5282:468.622 - 0.017ms returns 0
T1CFC 5282:468.635 JLINK_WriteReg(R2, 0x20000180)
T1CFC 5282:468.648 - 0.017ms returns 0
T1CFC 5282:468.660 JLINK_WriteReg(R3, 0x00000000)
T1CFC 5282:468.672 - 0.017ms returns 0
T1CFC 5282:468.685 JLINK_WriteReg(R4, 0x00000000)
T1CFC 5282:468.697 - 0.017ms returns 0
T1CFC 5282:468.709 JLINK_WriteReg(R5, 0x00000000)
T1CFC 5282:468.721 - 0.017ms returns 0
T1CFC 5282:468.734 JLINK_WriteReg(R6, 0x00000000)
T1CFC 5282:468.746 - 0.017ms returns 0
T1CFC 5282:468.758 JLINK_WriteReg(R7, 0x00000000)
T1CFC 5282:468.770 - 0.017ms returns 0
T1CFC 5282:468.783 JLINK_WriteReg(R8, 0x00000000)
T1CFC 5282:468.795 - 0.017ms returns 0
T1CFC 5282:468.808 JLINK_WriteReg(R9, 0x2000017C)
T1CFC 5282:468.819 - 0.017ms returns 0
T1CFC 5282:468.832 JLINK_WriteReg(R10, 0x00000000)
T1CFC 5282:468.844 - 0.017ms returns 0
T1CFC 5282:468.857 JLINK_WriteReg(R11, 0x00000000)
T1CFC 5282:468.868 - 0.017ms returns 0
T1CFC 5282:468.881 JLINK_WriteReg(R12, 0x00000000)
T1CFC 5282:468.893 - 0.017ms returns 0
T1CFC 5282:468.906 JLINK_WriteReg(R13 (SP), 0x20001000)
T1CFC 5282:468.918 - 0.018ms returns 0
T1CFC 5282:468.931 JLINK_WriteReg(R14, 0x20000001)
T1CFC 5282:468.943 - 0.017ms returns 0
T1CFC 5282:468.955 JLINK_WriteReg(R15 (PC), 0x20000108)
T1CFC 5282:468.967 - 0.017ms returns 0
T1CFC 5282:468.980 JLINK_WriteReg(XPSR, 0x01000000)
T1CFC 5282:468.992 - 0.017ms returns 0
T1CFC 5282:469.004 JLINK_WriteReg(MSP, 0x20001000)
T1CFC 5282:469.016 - 0.017ms returns 0
T1CFC 5282:469.029 JLINK_WriteReg(PSP, 0x20001000)
T1CFC 5282:469.041 - 0.017ms returns 0
T1CFC 5282:469.055 JLINK_WriteReg(CFBP, 0x00000000)
